! Anritsu VNA Master:                           Model: MS2034B
! SN:                                  1713009
! /bd0/feedline_1.s2p
! Existing Calibration Information:
! TYPE:                         Current Settings,       Active Cal Settings
! TIME:             	   10/18/2022 10:59:49 AM,    10/18/2022 10:43:36 AM
! INTERNAL TEMP:    	                   42.5 C,                    42.0 C
! # POINTS:         	                     4001,                      4001
! START FREQ:       	               20.000 MHz,                20.000 MHz
! STOP FREQ:        	                1.000 GHz,                 1.000 GHz
! SOURCE POWER:     	                  Default,                   Default
! IFBW:             	                   500 Hz,                    500 Hz
! AVG FACTOR:       	                       1 ,                        1 
! REF PLANE 1:      	                     0 mm,                      0 mm
! REF PLANE 2:      	                     0 mm,                      0 mm
! CAL TYPE:         	             1P2P S11,S21,              1P2P S11,S21
! CAL METHOD:       	                     SOLT,                      SOLT
! CAL LINE TYPE:    	                     Coax,                      Coax
! DUT PORT 1:       	                K-Conn(F),                 K-Conn(F)
! DUT PORT 2:       	                N-Conn(M),                 N-Conn(M)
! CAL STATUS:       	        OK: Accuracy High,                        --
# GHZ S RI R 50.0
! FREQ.GHZ      S11RE         S11IM         S21RE         S21IM         S12RE         S12IM         S22RE         S22IM
  0.020000000  1.580060E-02 -2.143050E-02  1.442660E-04  6.117830E-05  1.000000E+00  0.000000E+00  1.000000E+00  0.000000E+00
  0.020245000  1.634240E-02 -2.118940E-02  1.645350E-04  4.723460E-05  1.000000E+00  0.000000E+00  1.000000E+00  0.000000E+00
  0.020490000  1.665710E-02 -2.076700E-02  1.740400E-04  5.155550E-05  1.000000E+00  0.000000E+00  1.000000E+00  0.000000E+00
  0.020735000  1.691340E-02 -2.073200E-02  1.705590E-04  2.974280E-05  1.000000E+00  0.000000E+00  1.000000E+00  0.000000E+00
  0.020980000  1.722070E-02 -2.061370E-02  1.947730E-04  3.540730E-05  1.000000E+00  0.000000E+00  1.000000E+00  0.000000E+00
  0.021225000  1.727130E-02 -2.055130E-02  1.774420E-04  3.685800E-05  1.000000E+00  0.000000E+00  1.000000E+00  0.000000E+00
  0.021470000  1.754340E-02 -2.024900E-02  1.830030E-04  2.800570E-05  1.000000E+00  0.000000E+00  1.000000E+00  0.000000E+00
  0.021715000  1.805410E-02 -2.053960E-02  1.871610E-04  1.535450E-05  1.000000E+00  0.000000E+00  1.000000E+00  0.000000E+00
  0.021960000  1.827920E-02 -2.022820E-02  1.915700E-04  1.120760E-05  1.000000E+00  0.000000E+00  1.000000E+00  0.000000E+00
  0.022205000  1.867650E-02 -1.949680E-02  2.057360E-04  2.447570E-06  1.000000E+00  0.000000E+00  1.000000E+00  0.000000E+00
  0.022450000  1.893730E-02 -1.944520E-02  2.052240E-04 -1.463100E-05  1.000000E+00  0.000000E+00  1.000000E+00  0.000000E+00
  0.022695000  1.942940E-02 -1.906170E-02  2.142840E-04 -1.714690E-05  1.000000E+00  0.000000E+00  1.000000E+00  0.000000E+00
  0.022940000  1.955340E-02 -1.925160E-02  2.073610E-04 -2.268370E-05  1.000000E+00  0.000000E+00  1.000000E+00  0.000000E+00
  0.023185000  1.989490E-02 -1.892070E-02  2.059050E-04 -3.215150E-05  1.000000E+00  0.000000E+00  1.000000E+00  0.000000E+00
  0.023430000  2.008240E-02 -1.850320E-02  2.033800E-04 -5.594850E-05  1.000000E+00  0.000000E+00  1.000000E+00  0.000000E+00
  0.023675000  2.041250E-02 -1.830520E-02  2.019410E-04 -5.364300E-05  1.000000E+00  0.000000E+00  1.000000E+00  0.000000E+00
  0.023920000  2.083460E-02 -1.813400E-02  2.211190E-04 -6.619180E-05  1.000000E+00  0.000000E+00  1.000000E+00  0.000000E+00
  0.024165000  2.094180E-02 -1.777660E-02  2.128830E-04 -6.255980E-05  1.000000E+00  0.000000E+00  1.000000E+00  0.000000E+00
  0.024410000  2.100060E-02 -1.766660E-02  2.266480E-04 -8.167020E-05  1.000000E+00  0.000000E+00  1.000000E+00  0.000000E+00
  0.024655000  2.129260E-02 -1.691560E-02  2.035190E-04 -9.170770E-05  1.000000E+00  0.000000E+00  1.000000E+00  0.000000E+00
  0.024900000  2.134960E-02 -1.698920E-02  2.106210E-04 -1.093250E-04  1.000000E+00  0.000000E+00  1.000000E+00  0.000000E+00
  0.025145000  2.159040E-02 -1.705900E-02  2.130870E-04 -1.102030E-04  1.000000E+00  0.000000E+00  1.000000E+00  0.000000E+00
  0.025390000  2.182110E-02 -1.642100E-02  2.056980E-04 -1.188310E-04  1.000000E+00  0.000000E+00  1.000000E+00  0.000000E+00
  0.025635000  2.212670E-02 -1.616940E-02  2.065210E-04 -1.339150E-04  1.000000E+00  0.000000E+00  1.000000E+00  0.000000E+00
  0.025880000  2.252640E-02 -1.564890E-02  1.967530E-04 -1.419460E-04  1.000000E+00  0.000000E+00  1.000000E+00  0.000000E+00
  0.026125000  2.261610E-02 -1.551530E-02  2.016430E-04 -1.549710E-04  1.000000E+00  0.000000E+00  1.000000E+00  0.000000E+00
  0.026370000  2.284180E-02 -1.535370E-02  2.047280E-04 -1.581600E-04  1.000000E+00  0.000000E+00  1.000000E+00  0.000000E+00
  0.026615000  2.291010E-02 -1.483340E-02  1.918690E-04 -1.813900E-04  1.000000E+00  0.000000E+00  1.000000E+00  0.000000E+00
  0.026860000  2.333750E-02 -1.463710E-02  1.868060E-04 -1.911110E-04  1.000000E+00  0.000000E+00  1.000000E+00  0.000000E+00
  0.027105000  2.358260E-02 -1.438540E-02  1.962870E-04 -2.132340E-04  1.000000E+00  0.000000E+00  1.000000E+00  0.000000E+00
  0.027350000  2.317620E-02 -1.419980E-02  1.786300E-04 -1.987160E-04  1.000000E+00  0.000000E+00  1.000000E+00  0.000000E+00
  0.027595000  2.352540E-02 -1.406350E-02  1.843480E-04 -2.052590E-04  1.000000E+00  0.000000E+00  1.000000E+00  0.000000E+00
  0.027840000  2.362060E-02 -1.363250E-02  1.689170E-04 -2.302360E-04  1.000000E+00  0.000000E+00  1.000000E+00  0.000000E+00
  0.028085000  2.366530E-02 -1.284350E-02  1.637630E-04 -2.219480E-04  1.000000E+00  0.000000E+00  1.000000E+00  0.000000E+00
  0.028330000  2.393510E-02 -1.293710E-02  1.625250E-04 -2.419600E-04  1.000000E+00  0.000000E+00  1.000000E+00  0.000000E+00
  0.028575000  2.406490E-02 -1.238620E-02  1.532300E-04 -2.532860E-04  1.000000E+00  0.000000E+00  1.000000E+00  0.000000E+00
  0.028820000  2.423100E-02 -1.185580E-02  1.494490E-04 -2.638600E-04  1.000000E+00  0.000000E+00  1.000000E+00  0.000000E+00
  0.029065000  2.426950E-02 -1.180630E-02  1.412930E-04 -2.596630E-04  1.000000E+00  0.000000E+00  1.000000E+00  0.000000E+00
  0.029310000  2.426710E-02 -1.156010E-02  1.231790E-04 -2.865770E-04  1.000000E+00  0.000000E+00  1.000000E+00  0.000000E+00
  0.029555000  2.443650E-02 -1.122700E-02  1.197010E-04 -2.892910E-04  1.000000E+00  0.000000E+00  1.000000E+00  0.000000E+00
  0.029800000  2.425530E-02 -1.103550E-02  9.857040E-05 -3.001160E-04  1.000000E+00  0.000000E+00  1.000000E+00  0.000000E+00
  0.030045000  2.426400E-02 -1.060130E-02  9.638830E-05 -2.901150E-04  1.000000E+00  0.000000E+00  1.000000E+00  0.000000E+00
  0.030290000  2.437420E-02 -1.033380E-02  8.900130E-05 -3.101710E-04  1.000000E+00  0.000000E+00  1.000000E+00  0.000000E+00
  0.030535000  2.445440E-02 -9.727920E-03  7.538510E-05 -3.259770E-04  1.000000E+00  0.000000E+00  1.000000E+00  0.000000E+00
  0.030780000  2.465640E-02 -9.433260E-03  7.172770E-05 -3.246630E-04  1.000000E+00  0.000000E+00  1.000000E+00  0.000000E+00
  0.031025000  2.438240E-02 -9.174520E-03  5.645880E-05 -3.360740E-04  1.000000E+00  0.000000E+00  1.000000E+00  0.000000E+00
  0.031270000  2.433930E-02 -8.836850E-03  4.768120E-05 -3.485300E-04  1.000000E+00  0.000000E+00  1.000000E+00  0.000000E+00
  0.031515000  2.435910E-02 -8.370320E-03  2.656390E-05 -3.440250E-04  1.000000E+00  0.000000E+00  1.000000E+00  0.000000E+00
  0.031760000  2.423290E-02 -8.191760E-03  2.502470E-05 -3.581870E-04  1.000000E+00  0.000000E+00  1.000000E+00  0.000000E+00
  0.032005000  2.446650E-02 -7.950800E-03  2.643240E-05 -3.646470E-04  1.000000E+00  0.000000E+00  1.000000E+00  0.000000E+00
  0.032250000  2.421390E-02 -7.510040E-03 -7.185750E-06 -3.768060E-04  1.000000E+00  0.000000E+00  1.000000E+00  0.000000E+00
  0.032495000  2.429580E-02 -7.300910E-03 -1.864050E-05 -3.745640E-04  1.000000E+00  0.000000E+00  1.000000E+00  0.000000E+00
  0.032740000  2.465290E-02 -6.858610E-03 -2.787980E-05 -3.780360E-04  1.000000E+00  0.000000E+00  1.000000E+00  0.000000E+00
  0.032985000  2.431870E-02 -6.589090E-03 -3.694950E-05 -3.906850E-04  1.000000E+00  0.000000E+00  1.000000E+00  0.000000E+00
  0.033230000  2.422980E-02 -6.205310E-03 -5.671650E-05 -3.697290E-04  1.000000E+00  0.000000E+00  1.000000E+00  0.000000E+00
  0.033475000  2.412580E-02 -5.878940E-03 -5.700290E-05 -3.979370E-04  1.000000E+00  0.000000E+00  1.000000E+00  0.000000E+00
  0.033720000  2.415110E-02 -5.408430E-03 -8.315510E-05 -3.785550E-04  1.000000E+00  0.000000E+00  1.000000E+00  0.000000E+00
  0.033965000  2.408140E-02 -4.930880E-03 -9.555730E-05 -3.885400E-04  1.000000E+00  0.000000E+00  1.000000E+00  0.000000E+00
  0.034210000  2.405910E-02 -4.955930E-03 -1.008470E-04 -4.033040E-04  1.000000E+00  0.000000E+00  1.000000E+00  0.000000E+00
  0.034455000  2.394720E-02 -4.507210E-03 -1.239120E-04 -4.022720E-04  1.000000E+00  0.000000E+00  1.000000E+00  0.000000E+00
  0.034700000  2.364050E-02 -4.264280E-03 -1.403400E-04 -4.024820E-04  1.000000E+00  0.000000E+00  1.000000E+00  0.000000E+00
  0.034945000  2.350110E-02 -3.995890E-03 -1.536210E-04 -3.971650E-04  1.000000E+00  0.000000E+00  1.000000E+00  0.000000E+00
  0.035190000  2.364740E-02 -3.603710E-03 -1.695150E-04 -3.983120E-04  1.000000E+00  0.000000E+00  1.000000E+00  0.000000E+00
  0.035435000  2.345340E-02 -3.154220E-03 -1.858210E-04 -3.895030E-04  1.000000E+00  0.000000E+00  1.000000E+00  0.000000E+00
  0.035680000  2.324190E-02 -3.150310E-03 -1.917210E-04 -4.110950E-04  1.000000E+00  0.000000E+00  1.000000E+00  0.000000E+00
  0.035925000  2.347560E-02 -2.699670E-03 -2.029340E-04 -3.924580E-04  1.000000E+00  0.000000E+00  1.000000E+00  0.000000E+00
  0.036170000  2.289970E-02 -2.443230E-03 -2.331290E-04 -3.858970E-04  1.000000E+00  0.000000E+00  1.000000E+00  0.000000E+00
  0.036415000  2.279720E-02 -2.144250E-03 -2.512250E-04 -3.921440E-04  1.000000E+00  0.000000E+00  1.000000E+00  0.000000E+00
  0.036660000  2.279810E-02 -1.795140E-03 -2.596460E-04 -3.846540E-04  1.000000E+00  0.000000E+00  1.000000E+00  0.000000E+00
  0.036905000  2.244660E-02 -1.523380E-03 -2.670000E-04 -3.834320E-04  1.000000E+00  0.000000E+00  1.000000E+00  0.000000E+00
  0.037150000  2.252880E-02 -1.402560E-03 -2.906680E-04 -3.765160E-04  1.000000E+00  0.000000E+00  1.000000E+00  0.000000E+00
  0.037395000  2.228160E-02 -9.614150E-04 -2.934620E-04 -3.856850E-04  1.000000E+00  0.000000E+00  1.000000E+00  0.000000E+00
  0.037640000  2.192100E-02 -8.013460E-04 -3.169620E-04 -3.787810E-04  1.000000E+00  0.000000E+00  1.000000E+00  0.000000E+00
  0.037885000  2.185870E-02 -6.764000E-04 -3.232530E-04 -3.621600E-04  1.000000E+00  0.000000E+00  1.000000E+00  0.000000E+00
  0.038130000  2.162670E-02 -1.520270E-04 -3.372000E-04 -3.607590E-04  1.000000E+00  0.000000E+00  1.000000E+00  0.000000E+00
  0.038375000  2.135470E-02 -2.953400E-04 -3.592640E-04 -3.533450E-04  1.000000E+00  0.000000E+00  1.000000E+00  0.000000E+00
  0.038620000  2.135790E-02 -8.537210E-05 -3.822010E-04 -3.370870E-04  1.000000E+00  0.000000E+00  1.000000E+00  0.000000E+00
  0.038865000  2.092530E-02  4.629110E-04 -3.998260E-04 -3.392140E-04  1.000000E+00  0.000000E+00  1.000000E+00  0.000000E+00
  0.039110000  2.077050E-02  7.495280E-04 -4.135850E-04 -3.283780E-04  1.000000E+00  0.000000E+00  1.000000E+00  0.000000E+00
  0.039355000  2.026790E-02  6.992420E-04 -4.394790E-04 -3.201850E-04  1.000000E+00  0.000000E+00  1.000000E+00  0.000000E+00
  0.039600000  2.033060E-02  8.286600E-04 -4.348640E-04 -3.014200E-04  1.000000E+00  0.000000E+00  1.000000E+00  0.000000E+00
  0.039845000  1.991850E-02  1.377530E-03 -4.527120E-04 -2.915680E-04  1.000000E+00  0.000000E+00  1.000000E+00  0.000000E+00
  0.040090000  1.981930E-02  1.407930E-03 -4.369310E-04 -2.855630E-04  1.000000E+00  0.000000E+00  1.000000E+00  0.000000E+00
  0.040335000  1.949570E-02  1.389190E-03 -4.355400E-04 -2.756330E-04  1.000000E+00  0.000000E+00  1.000000E+00  0.000000E+00
  0.040580000  1.902820E-02  1.704420E-03 -4.759080E-04 -2.745160E-04  1.000000E+00  0.000000E+00  1.000000E+00  0.000000E+00
  0.040825000  1.891390E-02  1.759730E-03 -4.766610E-04 -2.481710E-04  1.000000E+00  0.000000E+00  1.000000E+00  0.000000E+00
  0.041070000  1.865480E-02  1.935780E-03 -5.065150E-04 -2.440800E-04  1.000000E+00  0.000000E+00  1.000000E+00  0.000000E+00
  0.041315000  1.821290E-02  2.232500E-03 -5.025250E-04 -2.128490E-04  1.000000E+00  0.000000E+00  1.000000E+00  0.000000E+00
  0.041560000  1.804230E-02  2.430850E-03 -4.997880E-04 -2.149300E-04  1.000000E+00  0.000000E+00  1.000000E+00  0.000000E+00
  0.041805000  1.777210E-02  2.152310E-03 -5.306590E-04 -1.988130E-04  1.000000E+00  0.000000E+00  1.000000E+00  0.000000E+00
  0.042050000  1.759000E-02  2.921410E-03 -5.298090E-04 -1.926020E-04  1.000000E+00  0.000000E+00  1.000000E+00  0.000000E+00
  0.042295000  1.730880E-02  2.891030E-03 -5.555800E-04 -1.760360E-04  1.000000E+00  0.000000E+00  1.000000E+00  0.000000E+00
  0.042540000  1.683220E-02  2.917280E-03 -5.556790E-04 -1.489250E-04  1.000000E+00  0.000000E+00  1.000000E+00  0.000000E+00
  0.042785000  1.681730E-02  3.269910E-03 -5.771260E-04 -1.259280E-04  1.000000E+00  0.000000E+00  1.000000E+00  0.000000E+00
  0.043030000  1.647260E-02  3.067870E-03 -5.754000E-04 -1.049780E-04  1.000000E+00  0.000000E+00  1.000000E+00  0.000000E+00
  0.043275000  1.628920E-02  3.172170E-03 -5.658380E-04 -1.012210E-04  1.000000E+00  0.000000E+00  1.000000E+00  0.000000E+00
  0.043520000  1.599980E-02  3.225780E-03 -5.932410E-04 -9.419140E-05  1.000000E+00  0.000000E+00  1.000000E+00  0.000000E+00
  0.043765000  1.548340E-02  3.420890E-03 -6.028100E-04 -6.471020E-05  1.000000E+00  0.000000E+00  1.000000E+00  0.000000E+00
  0.044010000  1.550850E-02  3.744550E-03 -5.829610E-04 -3.918900E-05  1.000000E+00  0.000000E+00  1.000000E+00  0.000000E+00
  0.044255000  1.522710E-02  3.863290E-03 -5.860520E-04 -3.404080E-05  1.000000E+00  0.000000E+00  1.000000E+00  0.000000E+00
  0.044500000  1.479490E-02  3.745640E-03 -6.009340E-04 -5.551750E-06  1.000000E+00  0.000000E+00  1.000000E+00  0.000000E+00
  0.044745000  1.420740E-02  3.692950E-03 -5.971630E-04  9.723310E-06  1.000000E+00  0.000000E+00  1.000000E+00  0.000000E+00
  0.044990000  1.435220E-02  3.673930E-03 -6.076850E-04  3.493430E-05  1.000000E+00  0.000000E+00  1.000000E+00  0.000000E+00
  0.045235000  1.404680E-02  3.734250E-03 -6.294250E-04  5.799030E-05  1.000000E+00  0.000000E+00  1.000000E+00  0.000000E+00
  0.045480000  1.370100E-02  3.760420E-03 -6.311000E-04  7.708820E-05  1.000000E+00  0.000000E+00  1.000000E+00  0.000000E+00
  0.045725000  1.365490E-02  4.054280E-03 -6.352480E-04  7.801240E-05  1.000000E+00  0.000000E+00  1.000000E+00  0.000000E+00
  0.045970000  1.304110E-02  4.087720E-03 -6.192650E-04  1.133000E-04  1.000000E+00  0.000000E+00  1.000000E+00  0.000000E+00
  0.046215000  1.283950E-02  3.781380E-03 -6.263360E-04  1.377730E-04  1.000000E+00  0.000000E+00  1.000000E+00  0.000000E+00
  0.046460000  1.231410E-02  4.065750E-03 -6.157700E-04  1.509000E-04  1.000000E+00  0.000000E+00  1.000000E+00  0.000000E+00
  0.046705000  1.215220E-02  3.611760E-03 -6.262830E-04  1.826250E-04  1.000000E+00  0.000000E+00  1.000000E+00  0.000000E+00
  0.046950000  1.192790E-02  3.866360E-03 -6.128630E-04  1.966220E-04  1.000000E+00  0.000000E+00  1.000000E+00  0.000000E+00
  0.047195000  1.180920E-02  3.934240E-03 -6.306600E-04  2.463430E-04  1.000000E+00  0.000000E+00  1.000000E+00  0.000000E+00
  0.047440000  1.182870E-02  3.982680E-03 -6.233470E-04  2.233050E-04  1.000000E+00  0.000000E+00  1.000000E+00  0.000000E+00
  0.047685000  1.108480E-02  3.671470E-03 -6.212340E-04  2.549650E-04  1.000000E+00  0.000000E+00  1.000000E+00  0.000000E+00
  0.047930000  1.112070E-02  3.795770E-03 -5.909350E-04  2.912840E-04  1.000000E+00  0.000000E+00  1.000000E+00  0.000000E+00
  0.048175000  1.060440E-02  3.680090E-03 -5.887500E-04  3.069910E-04  1.000000E+00  0.000000E+00  1.000000E+00  0.000000E+00
  0.048420000  1.029890E-02  3.825670E-03 -5.633410E-04  3.305780E-04  1.000000E+00  0.000000E+00  1.000000E+00  0.000000E+00
  0.048665000  1.006610E-02  3.870930E-03 -6.015990E-04  3.461910E-04  1.000000E+00  0.000000E+00  1.000000E+00  0.000000E+00
  0.048910000  9.890390E-03  3.569030E-03 -5.707550E-04  3.647220E-04  1.000000E+00  0.000000E+00  1.000000E+00  0.000000E+00
  0.049155000  9.268540E-03  3.277110E-03 -5.713830E-04  3.625730E-04  1.000000E+00  0.000000E+00  1.000000E+00  0.000000E+00
  0.049400000  9.129840E-03  3.472650E-03 -5.683340E-04  3.889890E-04  1.000000E+00  0.000000E+00  1.000000E+00  0.000000E+00
  0.049645000  8.733710E-03  3.551070E-03 -5.491510E-04  4.112750E-04  1.000000E+00  0.000000E+00  1.000000E+00  0.000000E+00
  0.049890000  8.795000E-03  2.918180E-03 -5.437590E-04  4.218520E-04  1.000000E+00  0.000000E+00  1.000000E+00  0.000000E+00
  0.050135000  8.523390E-03  2.977260E-03 -5.615680E-04  4.422480E-04  1.000000E+00  0.000000E+00  1.000000E+00  0.000000E+00
  0.050380000  8.120520E-03  2.853960E-03 -4.941200E-04  4.632270E-04  1.000000E+00  0.000000E+00  1.000000E+00  0.000000E+00
  0.050625000  8.315930E-03  2.909610E-03 -4.817550E-04  4.994040E-04  1.000000E+00  0.000000E+00  1.000000E+00  0.000000E+00
  0.050870000  7.703570E-03  2.750390E-03 -4.630080E-04  5.125910E-04  1.000000E+00  0.000000E+00  1.000000E+00  0.000000E+00
  0.051115000  7.683200E-03  2.495860E-03 -4.770730E-04  5.078380E-04  1.000000E+00  0.000000E+00  1.000000E+00  0.000000E+00
  0.051360000  7.338380E-03  2.320040E-03 -4.485640E-04  5.381420E-04  1.000000E+00  0.000000E+00  1.000000E+00  0.000000E+00
  0.051605000  6.817050E-03  2.443210E-03 -4.249190E-04  5.555110E-04  1.000000E+00  0.000000E+00  1.000000E+00  0.000000E+00
  0.051850000  6.805690E-03  1.828050E-03 -4.239480E-04  5.865290E-04  1.000000E+00  0.000000E+00  1.000000E+00  0.000000E+00
  0.052095000  6.650680E-03  1.888790E-03 -4.081450E-04  6.091180E-04  1.000000E+00  0.000000E+00  1.000000E+00  0.000000E+00
  0.052340000  6.566410E-03  1.656810E-03 -4.029660E-04  6.324760E-04  1.000000E+00  0.000000E+00  1.000000E+00  0.000000E+00
  0.052585000  5.993980E-03  1.692770E-03 -3.709480E-04  6.347630E-04  1.000000E+00  0.000000E+00  1.000000E+00  0.000000E+00
  0.052830000  5.900090E-03  1.142900E-03 -3.396400E-04  6.684470E-04  1.000000E+00  0.000000E+00  1.000000E+00  0.000000E+00
  0.053075000  5.611690E-03  1.393140E-03 -3.124540E-04  6.629330E-04  1.000000E+00  0.000000E+00  1.000000E+00  0.000000E+00
  0.053320000  5.261730E-03  1.287920E-03 -3.179540E-04  7.075480E-04  1.000000E+00  0.000000E+00  1.000000E+00  0.000000E+00
  0.053565000  5.415110E-03  7.665080E-04 -2.798590E-04  7.023950E-04  1.000000E+00  0.000000E+00  1.000000E+00  0.000000E+00
  0.053810000  4.996580E-03  9.120910E-04 -2.784550E-04  7.170150E-04  1.000000E+00  0.000000E+00  1.000000E+00  0.000000E+00
  0.054055000  5.225170E-03  5.428600E-04 -2.317670E-04  7.469940E-04  1.000000E+00  0.000000E+00  1.000000E+00  0.000000E+00
  0.054300000  4.682940E-03  5.028430E-04 -2.089930E-04  7.579130E-04  1.000000E+00  0.000000E+00  1.000000E+00  0.000000E+00
  0.054545000  4.586470E-03 -3.792420E-06 -1.664080E-04  7.739750E-04  1.000000E+00  0.000000E+00  1.000000E+00  0.000000E+00
  0.054790000  4.463560E-03 -3.552810E-04 -1.669870E-04  7.711200E-04  1.000000E+00  0.000000E+00  1.000000E+00  0.000000E+00
  0.055035000  4.317930E-03 -2.567980E-04 -1.576030E-04  8.016360E-04  1.000000E+00  0.000000E+00  1.000000E+00  0.000000E+00
  0.055280000  3.890020E-03 -3.203650E-04 -1.106690E-04  7.823390E-04  1.000000E+00  0.000000E+00  1.000000E+00  0.000000E+00
  0.055525000  3.919680E-03 -9.146230E-04 -9.349730E-05  8.250410E-04  1.000000E+00  0.000000E+00  1.000000E+00  0.000000E+00
